Sample in Buffer,Sample in Window,TRIGGER,voltmeter2_inst/adc_data[7:0],voltmeter2_inst/sin_wave[13:0],voltmeter2_inst/vrms[12:0]
Radix - UNSIGNED,UNSIGNED,UNSIGNED,SIGNED,SIGNED,UNSIGNED
0,0,0,108,-742,703
1,1,0,108,-742,703
2,2,0,108,-742,703
3,3,0,108,-742,703
4,4,0,108,-742,703
5,5,0,108,-742,703
6,6,0,108,-742,703
7,7,0,108,-742,703
8,8,0,108,-742,703
9,9,0,108,-742,703
10,10,0,108,-742,703
11,11,0,108,-742,703
12,12,0,108,-742,703
13,13,0,108,-742,703
14,14,0,108,-742,703
15,15,0,108,-742,703
16,16,0,108,-742,703
17,17,0,108,-742,703
18,18,0,108,-742,703
19,19,0,108,-742,703
20,20,0,108,-742,703
21,21,0,108,-742,703
22,22,0,108,-742,703
23,23,0,108,-742,703
24,24,0,108,-742,703
25,25,0,108,-742,703
26,26,0,108,-742,703
27,27,0,108,-742,703
28,28,0,108,-742,703
29,29,0,108,-742,703
30,30,0,108,-742,703
31,31,0,108,-742,703
32,32,0,108,-742,703
33,33,0,108,-742,703
34,34,0,108,-742,703
35,35,0,108,-742,703
36,36,0,108,-742,703
37,37,0,108,-742,703
38,38,0,108,-742,703
39,39,0,108,-742,703
40,40,0,108,-742,703
41,41,0,108,-742,703
42,42,0,108,-742,703
43,43,0,108,-742,703
44,44,0,108,-742,703
45,45,0,108,-742,703
46,46,0,108,-742,703
47,47,0,108,-742,703
48,48,0,108,-742,703
49,49,0,108,-742,703
50,50,0,108,-742,703
51,51,0,108,-742,703
52,52,0,108,-742,703
53,53,0,108,-742,703
54,54,0,108,-742,703
55,55,0,108,-742,703
56,56,0,108,-742,703
57,57,0,109,-742,703
58,58,0,108,-742,703
59,59,0,108,-703,703
60,60,0,108,-742,703
61,61,0,109,-742,703
62,62,0,108,-742,703
63,63,0,109,-703,703
64,64,0,108,-742,703
65,65,0,109,-703,703
66,66,0,109,-742,703
67,67,0,109,-703,703
68,68,0,108,-703,703
69,69,0,109,-703,703
70,70,0,108,-742,703
71,71,0,109,-703,703
72,72,0,109,-742,703
73,73,0,109,-703,703
74,74,0,108,-703,703
75,75,0,109,-703,703
76,76,0,109,-742,703
77,77,0,109,-703,703
78,78,0,109,-703,703
79,79,0,109,-703,703
80,80,0,109,-703,703
81,81,0,109,-703,703
82,82,0,109,-703,703
83,83,0,109,-703,703
84,84,0,109,-703,703
85,85,0,109,-703,703
86,86,0,109,-703,703
87,87,0,109,-703,703
88,88,0,109,-703,703
89,89,0,109,-703,703
90,90,0,109,-703,703
91,91,0,109,-703,703
92,92,0,109,-703,703
93,93,0,109,-703,703
94,94,0,109,-703,703
95,95,0,109,-703,703
96,96,0,109,-703,703
97,97,0,109,-703,703
98,98,0,109,-703,703
99,99,0,109,-703,703
100,100,0,109,-703,703
101,101,0,109,-703,703
102,102,0,109,-703,703
103,103,0,109,-703,703
104,104,0,109,-703,703
105,105,0,109,-703,703
106,106,0,109,-703,703
107,107,0,109,-703,703
108,108,0,109,-703,703
109,109,0,109,-703,703
110,110,0,109,-703,703
111,111,0,109,-703,703
112,112,0,109,-703,703
113,113,0,109,-703,703
114,114,0,109,-703,703
115,115,0,109,-703,703
116,116,0,109,-703,703
117,117,0,109,-703,703
118,118,0,109,-703,703
119,119,0,109,-703,703
120,120,0,109,-703,703
121,121,0,109,-703,703
122,122,0,110,-703,703
123,123,0,109,-703,703
124,124,0,109,-664,703
125,125,0,109,-703,703
126,126,0,109,-703,703
127,127,0,109,-703,703
128,128,0,109,-703,703
129,129,0,109,-703,703
130,130,0,110,-703,703
131,131,0,109,-703,703
132,132,0,110,-664,703
133,133,0,109,-703,703
134,134,0,109,-664,703
135,135,0,109,-703,703
136,136,0,110,-703,703
137,137,0,109,-703,703
138,138,0,109,-664,703
139,139,0,109,-703,703
140,140,0,110,-703,703
141,141,0,109,-703,703
142,142,0,110,-664,703
143,143,0,109,-703,703
144,144,0,110,-664,703
145,145,0,109,-703,703
146,146,0,110,-664,703
147,147,0,109,-703,703
148,148,0,110,-664,703
149,149,0,109,-703,703
150,150,0,110,-664,703
151,151,0,110,-703,703
152,152,0,110,-664,703
153,153,0,110,-664,703
154,154,0,110,-664,703
155,155,0,109,-664,703
156,156,0,110,-664,703
157,157,0,109,-703,703
158,158,0,110,-664,703
159,159,0,110,-703,703
160,160,0,110,-664,703
161,161,0,110,-664,703
162,162,0,110,-664,703
163,163,0,110,-664,703
164,164,0,110,-664,703
165,165,0,110,-664,703
166,166,0,110,-664,703
167,167,0,110,-664,703
168,168,0,110,-664,703
169,169,0,110,-664,703
170,170,0,110,-664,703
171,171,0,110,-664,703
172,172,0,110,-664,703
173,173,0,110,-664,703
174,174,0,110,-664,703
175,175,0,110,-664,703
176,176,0,110,-664,703
177,177,0,110,-664,703
178,178,0,110,-664,703
179,179,0,110,-664,703
180,180,0,110,-664,703
181,181,0,110,-664,703
182,182,0,110,-664,703
183,183,0,110,-664,703
184,184,0,110,-664,703
185,185,0,110,-664,703
186,186,0,110,-664,703
187,187,0,110,-664,703
188,188,0,111,-664,703
189,189,0,110,-664,703
190,190,0,111,-625,703
191,191,0,110,-664,703
192,192,0,111,-625,703
193,193,0,110,-664,703
194,194,0,110,-625,703
195,195,0,110,-664,703
196,196,0,111,-664,703
197,197,0,110,-664,703
198,198,0,111,-625,703
199,199,0,110,-664,703
200,200,0,111,-625,703
201,201,0,110,-664,703
202,202,0,111,-625,703
203,203,0,110,-664,703
204,204,0,111,-625,703
205,205,0,110,-664,703
206,206,0,111,-625,703
207,207,0,110,-664,703
208,208,0,111,-625,703
209,209,0,110,-664,703
210,210,0,111,-625,703
211,211,0,110,-664,703
212,212,0,111,-625,703
213,213,0,110,-664,703
214,214,0,111,-625,703
215,215,0,110,-664,703
216,216,0,111,-625,703
217,217,0,110,-664,703
218,218,0,111,-625,703
219,219,0,110,-664,703
220,220,0,111,-625,703
221,221,0,111,-664,703
222,222,0,111,-625,703
223,223,0,110,-625,703
224,224,0,111,-625,703
225,225,0,111,-664,703
226,226,0,111,-625,703
227,227,0,111,-625,703
228,228,0,111,-625,703
229,229,0,111,-625,703
230,230,0,111,-625,703
231,231,0,111,-625,703
232,232,0,111,-625,703
233,233,0,111,-625,703
234,234,0,111,-625,703
235,235,0,111,-625,703
236,236,0,111,-625,703
237,237,0,111,-625,703
238,238,0,111,-625,703
239,239,0,111,-625,703
240,240,0,111,-625,703
241,241,0,111,-625,703
242,242,0,111,-625,703
243,243,0,111,-625,703
244,244,0,111,-625,703
245,245,0,111,-625,703
246,246,0,111,-625,703
247,247,0,111,-625,703
248,248,0,111,-625,703
249,249,0,111,-625,703
250,250,0,111,-625,703
251,251,0,111,-625,703
252,252,0,111,-625,703
253,253,0,111,-625,703
254,254,0,111,-625,703
255,255,0,111,-625,703
256,256,0,111,-625,703
257,257,0,111,-625,703
258,258,0,96,-625,703
259,259,0,111,-625,703
260,260,0,96,-1210,703
261,261,0,111,-625,703
262,262,0,111,-1210,703
263,263,0,111,-625,703
264,264,0,111,-625,703
265,265,0,111,-625,703
266,266,0,96,-625,703
267,267,0,111,-625,703
268,268,0,96,-1210,703
269,269,0,111,-625,703
270,270,0,96,-1210,703
271,271,0,96,-625,703
272,272,0,96,-1210,703
273,273,0,111,-1210,703
274,274,0,111,-1210,703
275,275,0,96,-625,703
276,276,0,96,-625,703
277,277,0,111,-1210,703
278,278,0,96,-1210,703
279,279,0,111,-625,703
280,280,0,96,-1210,703
281,281,0,96,-625,703
282,282,0,96,-1210,703
283,283,0,96,-1210,703
284,284,0,111,-1210,703
285,285,0,111,-1210,703
286,286,0,96,-625,703
287,287,0,111,-625,703
288,288,0,96,-1210,703
289,289,0,96,-625,703
290,290,0,96,-1210,703
291,291,0,96,-1210,703
292,292,0,96,-1210,703
293,293,0,96,-1210,703
294,294,0,96,-1210,703
295,295,0,96,-1210,703
296,296,0,96,-1210,703
297,297,0,111,-1210,703
298,298,0,96,-1210,703
299,299,0,96,-625,703
300,300,0,96,-1210,703
301,301,0,96,-1210,703
302,302,0,96,-1210,703
303,303,0,96,-1210,703
304,304,0,96,-1210,703
305,305,0,96,-1210,703
306,306,0,96,-1210,703
307,307,0,96,-1210,703
308,308,0,96,-1210,703
309,309,0,96,-1210,703
310,310,0,96,-1210,703
311,311,0,96,-1210,703
312,312,0,96,-1210,703
313,313,0,96,-1210,703
314,314,0,96,-1210,703
315,315,0,111,-1210,703
316,316,0,111,-1210,703
317,317,0,111,-625,703
318,318,0,111,-625,703
319,319,0,111,-625,703
320,320,0,111,-625,703
321,321,0,111,-625,703
322,322,0,111,-625,703
323,323,0,111,-625,703
324,324,0,111,-625,703
325,325,0,110,-625,703
326,326,0,111,-625,703
327,327,0,110,-664,703
328,328,0,111,-625,703
329,329,0,110,-664,703
330,330,0,111,-625,703
331,331,0,110,-664,703
332,332,0,110,-625,703
333,333,0,110,-664,703
334,334,0,110,-664,703
335,335,0,109,-664,703
336,336,0,110,-664,703
337,337,0,110,-703,703
338,338,0,110,-664,703
339,339,0,109,-664,703
340,340,0,110,-664,703
341,341,0,109,-703,703
342,342,0,109,-664,703
343,343,0,109,-703,703
344,344,0,109,-703,703
345,345,0,109,-703,703
346,346,0,110,-703,703
347,347,0,109,-703,703
348,348,0,109,-664,703
349,349,0,109,-703,703
350,350,0,109,-703,703
351,351,0,109,-703,703
352,352,0,109,-703,703
353,353,0,109,-703,703
354,354,0,109,-703,703
355,355,0,109,-703,703
356,356,0,109,-703,703
357,357,0,109,-703,703
358,358,0,109,-703,703
359,359,0,109,-703,703
360,360,0,109,-703,703
361,361,0,109,-703,703
362,362,0,109,-703,703
363,363,0,109,-703,703
364,364,0,108,-703,703
365,365,0,109,-703,703
366,366,0,108,-742,703
367,367,0,109,-703,703
368,368,0,108,-742,703
369,369,0,109,-703,703
370,370,0,108,-742,703
371,371,0,108,-703,703
372,372,0,108,-742,703
373,373,0,108,-742,703
374,374,0,108,-742,703
375,375,0,108,-742,703
376,376,0,108,-742,703
377,377,0,108,-742,703
378,378,0,108,-742,703
379,379,0,108,-742,703
380,380,0,108,-742,703
381,381,0,108,-742,703
382,382,0,108,-742,703
383,383,0,108,-742,703
384,384,0,108,-742,703
385,385,0,108,-742,703
386,386,0,108,-742,703
387,387,0,108,-742,703
388,388,0,108,-742,703
389,389,0,108,-742,703
390,390,0,108,-742,703
391,391,0,108,-742,703
392,392,0,108,-742,703
393,393,0,108,-742,703
394,394,0,108,-742,703
395,395,0,108,-742,703
396,396,0,108,-742,703
397,397,0,108,-742,703
398,398,0,108,-742,703
399,399,0,108,-742,703
400,400,0,108,-742,703
401,401,0,108,-742,703
402,402,0,108,-742,703
403,403,0,108,-742,703
404,404,0,108,-742,703
405,405,0,108,-742,703
406,406,0,108,-742,703
407,407,0,108,-742,703
408,408,0,108,-742,703
409,409,0,108,-742,703
410,410,0,108,-742,703
411,411,0,108,-742,703
412,412,0,108,-742,703
413,413,0,108,-742,703
414,414,0,108,-742,703
415,415,0,108,-742,703
416,416,0,108,-742,703
417,417,0,108,-742,703
418,418,0,108,-742,703
419,419,0,108,-742,703
420,420,0,108,-742,703
421,421,0,108,-742,703
422,422,0,108,-742,703
423,423,0,108,-742,703
424,424,0,108,-742,703
425,425,0,108,-742,703
426,426,0,108,-742,703
427,427,0,108,-742,703
428,428,0,108,-742,703
429,429,0,108,-742,703
430,430,0,108,-742,703
431,431,0,108,-742,703
432,432,0,108,-742,703
433,433,0,108,-742,703
434,434,0,108,-742,703
435,435,0,108,-742,703
436,436,0,108,-742,703
437,437,0,108,-742,703
438,438,0,108,-742,703
439,439,0,108,-742,703
440,440,0,108,-742,703
441,441,0,108,-742,703
442,442,0,108,-742,703
443,443,0,108,-742,703
444,444,0,108,-742,703
445,445,0,108,-742,703
446,446,0,108,-742,703
447,447,0,108,-742,703
448,448,0,108,-742,703
449,449,0,108,-742,703
450,450,0,108,-742,703
451,451,0,108,-742,703
452,452,0,108,-742,703
453,453,0,108,-742,703
454,454,0,108,-742,703
455,455,0,108,-742,703
456,456,0,108,-742,703
457,457,0,108,-742,703
458,458,0,108,-742,703
459,459,0,108,-742,703
460,460,0,108,-742,703
461,461,0,108,-742,703
462,462,0,108,-742,703
463,463,0,108,-742,703
464,464,0,108,-742,703
465,465,0,108,-742,703
466,466,0,108,-742,703
467,467,0,108,-742,703
468,468,0,108,-742,703
469,469,0,108,-742,703
470,470,0,108,-742,703
471,471,0,108,-742,703
472,472,0,108,-742,703
473,473,0,108,-742,703
474,474,0,108,-742,703
475,475,0,108,-742,703
476,476,0,108,-742,703
477,477,0,108,-742,703
478,478,0,108,-742,703
479,479,0,108,-742,703
480,480,0,108,-742,703
481,481,0,108,-742,703
482,482,0,108,-742,703
483,483,0,108,-742,703
484,484,0,108,-742,703
485,485,0,108,-742,703
486,486,0,108,-742,703
487,487,0,108,-742,703
488,488,0,108,-742,703
489,489,0,108,-742,703
490,490,0,108,-742,703
491,491,0,108,-742,703
492,492,0,108,-742,703
493,493,0,108,-742,703
494,494,0,108,-742,703
495,495,0,108,-742,703
496,496,0,108,-742,703
497,497,0,108,-742,703
498,498,0,108,-742,703
499,499,0,108,-742,703
500,500,0,108,-742,703
501,501,0,108,-742,703
502,502,0,108,-742,703
503,503,0,108,-742,703
504,504,0,108,-742,703
505,505,0,108,-742,703
506,506,0,109,-742,703
507,507,0,108,-742,703
508,508,0,108,-703,703
509,509,0,109,-742,703
510,510,0,108,-742,703
511,511,0,109,-703,703
512,512,0,108,-742,703
513,513,0,109,-703,703
514,514,0,108,-742,703
515,515,0,109,-703,703
516,516,0,108,-742,703
517,517,0,109,-703,703
518,518,0,109,-742,703
519,519,0,109,-703,703
520,520,0,108,-703,703
521,521,0,109,-703,703
522,522,0,109,-742,703
523,523,0,109,-703,703
524,524,0,109,-703,703
525,525,0,109,-703,703
526,526,0,109,-703,703
527,527,0,109,-703,703
528,528,0,109,-703,703
529,529,0,109,-703,703
530,530,0,109,-703,703
531,531,0,109,-703,703
532,532,0,109,-703,703
533,533,0,109,-703,703
534,534,0,109,-703,703
535,535,0,109,-703,703
536,536,0,109,-703,703
537,537,0,109,-703,703
538,538,0,108,-703,703
539,539,0,109,-703,703
540,540,0,109,-742,703
541,541,0,109,-703,703
542,542,0,109,-703,703
543,543,0,109,-703,703
544,544,0,109,-703,703
545,545,0,109,-703,703
546,546,0,109,-703,703
547,547,0,109,-703,703
548,548,0,109,-703,703
549,549,0,109,-703,703
550,550,0,109,-703,703
551,551,0,109,-703,703
552,552,0,109,-703,703
553,553,0,109,-703,703
554,554,0,109,-703,703
555,555,0,109,-703,703
556,556,0,109,-703,703
557,557,0,109,-703,703
558,558,0,109,-703,703
559,559,0,109,-703,703
560,560,0,109,-703,703
561,561,0,109,-703,703
562,562,0,109,-703,703
563,563,0,109,-703,703
564,564,0,109,-703,703
565,565,0,109,-703,703
566,566,0,109,-703,703
567,567,0,109,-703,703
568,568,0,109,-703,703
569,569,0,109,-703,703
570,570,0,110,-703,703
571,571,0,109,-703,703
572,572,0,110,-664,703
573,573,0,109,-703,703
574,574,0,109,-664,703
575,575,0,109,-703,703
576,576,0,110,-703,703
577,577,0,109,-703,703
578,578,0,110,-664,703
579,579,0,109,-703,703
580,580,0,110,-664,703
581,581,0,109,-703,703
582,582,0,109,-664,703
583,583,0,109,-703,703
584,584,0,110,-703,703
585,585,0,109,-703,703
586,586,0,110,-664,703
587,587,0,109,-703,703
588,588,0,110,-664,703
589,589,0,109,-703,703
590,590,0,110,-664,703
591,591,0,109,-703,703
592,592,0,110,-664,703
593,593,0,109,-703,703
594,594,0,110,-664,703
595,595,0,109,-703,703
596,596,0,110,-664,703
597,597,0,109,-703,703
598,598,0,110,-664,703
599,599,0,110,-703,703
600,600,0,110,-664,703
601,601,0,109,-664,703
602,602,0,110,-664,703
603,603,0,109,-703,703
604,604,0,110,-664,703
605,605,0,110,-703,703
606,606,0,110,-664,703
607,607,0,110,-664,703
608,608,0,110,-664,703
609,609,0,110,-664,703
610,610,0,110,-664,703
611,611,0,110,-664,703
612,612,0,110,-664,703
613,613,0,110,-664,703
614,614,0,110,-664,703
615,615,0,110,-664,703
616,616,0,110,-664,703
617,617,0,110,-664,703
618,618,0,110,-664,703
619,619,0,110,-664,703
620,620,0,110,-664,703
621,621,0,110,-664,703
622,622,0,110,-664,703
623,623,0,110,-664,703
624,624,0,110,-664,703
625,625,0,110,-664,703
626,626,0,110,-664,703
627,627,0,110,-664,703
628,628,0,110,-664,703
629,629,0,110,-664,703
630,630,0,111,-664,703
631,631,0,110,-664,703
632,632,0,111,-625,703
633,633,0,110,-664,703
634,634,0,110,-625,703
635,635,0,110,-664,703
636,636,0,111,-664,703
637,637,0,110,-664,703
638,638,0,111,-625,703
639,639,0,110,-664,703
640,640,0,111,-625,703
641,641,0,110,-664,703
642,642,0,111,-625,703
643,643,0,110,-664,703
644,644,0,111,-625,703
645,645,0,110,-664,703
646,646,0,111,-625,703
647,647,0,110,-664,703
648,648,0,111,-625,703
649,649,0,110,-664,703
650,650,0,111,-625,703
651,651,0,110,-664,703
652,652,0,111,-625,703
653,653,0,110,-664,703
654,654,0,111,-625,703
655,655,0,111,-664,703
656,656,0,111,-625,703
657,657,0,110,-625,703
658,658,0,111,-625,703
659,659,0,110,-664,703
660,660,0,111,-625,703
661,661,0,110,-664,703
662,662,0,111,-625,703
663,663,0,111,-664,703
664,664,0,111,-625,703
665,665,0,111,-625,703
666,666,0,111,-625,703
667,667,0,111,-625,703
668,668,0,111,-625,703
669,669,0,111,-625,703
670,670,0,111,-625,703
671,671,0,111,-625,703
672,672,0,111,-625,703
673,673,0,111,-625,703
674,674,0,111,-625,703
675,675,0,111,-625,703
676,676,0,111,-625,703
677,677,0,111,-625,703
678,678,0,111,-625,703
679,679,0,111,-625,703
680,680,0,111,-625,703
681,681,0,111,-625,703
682,682,0,111,-625,703
683,683,0,111,-625,703
684,684,0,111,-625,703
685,685,0,111,-625,703
686,686,0,111,-625,703
687,687,0,111,-625,703
688,688,0,111,-625,703
689,689,0,111,-625,703
690,690,0,111,-625,703
691,691,0,111,-625,703
692,692,0,111,-625,703
693,693,0,111,-625,703
694,694,0,111,-625,703
695,695,0,111,-625,703
696,696,0,111,-625,703
697,697,0,111,-625,703
698,698,0,111,-625,703
699,699,0,111,-625,703
700,700,0,111,-625,703
701,701,0,111,-625,703
702,702,0,111,-625,703
703,703,0,111,-625,703
704,704,0,111,-625,703
705,705,0,96,-625,703
706,706,0,96,-625,703
707,707,0,111,-1210,703
708,708,0,96,-1210,703
709,709,0,111,-625,703
710,710,0,111,-1210,703
711,711,0,96,-625,703
712,712,0,111,-625,703
713,713,0,111,-1210,703
714,714,0,96,-625,703
715,715,0,111,-625,703
716,716,0,111,-1210,703
717,717,0,96,-625,703
718,718,0,96,-625,703
719,719,0,111,-1210,703
720,720,0,96,-1210,703
721,721,0,96,-625,703
722,722,0,96,-1210,703
723,723,0,96,-1210,703
724,724,0,96,-1210,703
725,725,0,111,-1210,703
726,726,0,96,-1210,703
727,727,0,111,-625,703
728,728,0,96,-1210,703
729,729,0,96,-625,703
730,730,0,96,-1210,703
731,731,0,96,-1210,703
732,732,0,96,-1210,703
733,733,0,96,-1210,703
734,734,0,96,-1210,703
735,735,0,96,-1210,703
736,736,0,96,-1210,703
737,737,0,96,-1210,703
738,738,0,96,-1210,703
739,739,0,96,-1210,703
740,740,0,96,-1210,703
741,741,0,96,-1210,703
742,742,0,96,-1210,703
743,743,0,96,-1210,703
744,744,0,96,-1210,703
745,745,0,96,-1210,703
746,746,0,96,-1210,703
747,747,0,96,-1210,703
748,748,0,96,-1210,703
749,749,0,96,-1210,703
750,750,0,96,-1210,703
751,751,0,111,-1210,703
752,752,0,96,-1210,703
753,753,0,111,-625,703
754,754,0,111,-1210,703
755,755,0,111,-625,703
756,756,0,111,-625,703
757,757,0,111,-625,703
758,758,0,111,-625,703
759,759,0,111,-625,703
760,760,0,111,-625,703
761,761,0,111,-625,703
762,762,0,111,-625,703
763,763,0,110,-625,703
764,764,0,111,-625,703
765,765,0,110,-664,703
766,766,0,111,-625,703
767,767,0,110,-664,703
768,768,0,111,-625,703
769,769,0,110,-664,703
770,770,0,111,-625,703
771,771,0,110,-664,703
772,772,0,110,-625,703
773,773,0,110,-664,703
774,774,0,110,-664,703
775,775,0,110,-664,703
776,776,0,110,-664,703
777,777,0,109,-664,703
778,778,0,110,-664,703
779,779,0,110,-703,703
780,780,0,110,-664,703
781,781,0,109,-664,703
782,782,0,110,-664,703
783,783,0,109,-703,703
784,784,0,109,-664,703
785,785,0,109,-703,703
786,786,0,109,-703,703
787,787,0,109,-703,703
788,788,0,109,-703,703
789,789,0,109,-703,703
790,790,0,109,-703,703
791,791,0,109,-703,703
792,792,0,109,-703,703
793,793,0,109,-703,703
794,794,0,109,-703,703
795,795,0,109,-703,703
796,796,0,109,-703,703
797,797,0,109,-703,703
798,798,0,109,-703,703
799,799,0,109,-703,703
800,800,0,108,-703,703
801,801,0,109,-703,703
802,802,0,109,-742,703
803,803,0,109,-703,703
804,804,0,109,-703,703
805,805,0,109,-703,703
806,806,0,109,-703,703
807,807,0,109,-703,703
808,808,0,108,-703,703
809,809,0,109,-703,703
810,810,0,108,-742,703
811,811,0,108,-703,703
812,812,0,108,-742,703
813,813,0,108,-742,703
814,814,0,108,-742,703
815,815,0,108,-742,703
816,816,0,108,-742,703
817,817,0,108,-742,703
818,818,0,108,-742,703
819,819,0,108,-742,703
820,820,0,108,-742,703
821,821,0,108,-742,703
822,822,0,108,-742,703
823,823,0,108,-742,703
824,824,0,108,-742,703
825,825,0,108,-742,703
826,826,0,108,-742,703
827,827,0,108,-742,703
828,828,0,108,-742,703
829,829,0,108,-742,703
830,830,0,108,-742,703
831,831,0,108,-742,703
832,832,0,108,-742,703
833,833,0,108,-742,703
834,834,0,108,-742,703
835,835,0,108,-742,703
836,836,0,108,-742,703
837,837,0,108,-742,703
838,838,0,108,-742,703
839,839,0,108,-742,703
840,840,0,108,-742,703
841,841,0,108,-742,703
842,842,0,108,-742,703
843,843,0,108,-742,703
844,844,0,108,-742,703
845,845,0,108,-742,703
846,846,0,108,-742,703
847,847,0,108,-742,703
848,848,0,108,-742,703
849,849,0,108,-742,703
850,850,0,108,-742,703
851,851,0,108,-742,703
852,852,0,108,-742,703
853,853,0,108,-742,703
854,854,0,108,-742,703
855,855,0,108,-742,703
856,856,0,108,-742,703
857,857,0,108,-742,703
858,858,0,108,-742,703
859,859,0,108,-742,703
860,860,0,108,-742,703
861,861,0,108,-742,703
862,862,0,108,-742,703
863,863,0,108,-742,703
864,864,0,108,-742,703
865,865,0,108,-742,703
866,866,0,108,-742,703
867,867,0,108,-742,703
868,868,0,108,-742,703
869,869,0,108,-742,703
